
T2598 008:076 SEGGER J-Link V6.30h Log File (0015ms, 0074ms total)
T2598 008:076 DLL Compiled: Mar 16 2018 18:02:51 (0015ms, 0074ms total)
T2598 008:076 Logging started @ 2020-11-28 14:47 (0015ms, 0074ms total)
T2598 008:091 JLINK_SetWarnOutHandler(...) (0000ms, 0074ms total)
T2598 008:091 JLINK_OpenEx(...)
Firmware: J-Link V9 compiled Oct 25 2018 11:46:07
Hardware: V9.40
S/N: 59401576
Feature(s): RDI, GDB, FlashDL, FlashBP, JFlash
TELNET listener socket opened on port 19021WEBSRV 
Starting webserver (0028ms, 0102ms total)
T2598 008:091 WEBSRV Webserver running on local port 19080 (0028ms, 0102ms total)
T2598 008:091   returns O.K. (0028ms, 0102ms total)
T2598 008:119 JLINK_GetEmuCaps()  returns 0xB9FF7BBF (0000ms, 0102ms total)
T2598 008:120 JLINK_TIF_GetAvailable(...) (0001ms, 0103ms total)
T2598 008:121 JLINK_SetErrorOutHandler(...) (0000ms, 0103ms total)
T2598 008:121 JLINK_ExecCommand("ProjectFile = "F:\2520CBOOT\Project\RVMDK£¨uv5£©\JLinkSettings.ini"", ...).   returns 0x00 (0081ms, 0184ms total)
T2598 008:209 JLINK_ExecCommand("Device = STM32F429IGTx", ...). Device "STM32F429IG" selected.  returns 0x00 (0005ms, 0189ms total)
T2598 008:214 JLINK_ExecCommand("DisableConnectionTimeout", ...).   returns 0x01 (0000ms, 0189ms total)
T2598 008:214 JLINK_GetHardwareVersion()  returns 0x16F30 (0000ms, 0189ms total)
T2598 008:214 JLINK_GetDLLVersion()  returns 63008 (0000ms, 0189ms total)
T2598 008:214 JLINK_GetFirmwareString(...) (0000ms, 0189ms total)
T2598 008:224 JLINK_GetDLLVersion()  returns 63008 (0000ms, 0189ms total)
T2598 008:224 JLINK_GetCompileDateTime() (0000ms, 0189ms total)
T2598 008:227 JLINK_GetFirmwareString(...) (0000ms, 0189ms total)
T2598 008:230 JLINK_GetHardwareVersion()  returns 0x16F30 (0000ms, 0189ms total)
T2598 008:240 JLINK_TIF_Select(JLINKARM_TIF_SWD)  returns 0x00 (0005ms, 0194ms total)
T2598 008:245 JLINK_SetSpeed(5000) (0000ms, 0194ms total)
T2598 008:246 JLINK_GetId() >0x10B TIF>Found SW-DP with ID 0x2BA01477 >0x0D TIF> >0x28 TIF> >0x0D TIF> >0x28 TIF> >0x0D TIF> >0x28 TIF> >0x0D TIF> >0x28 TIF> >0x0D TIF> >0x21 TIF> >0x0D TIF> >0x28 TIF> >0x0D TIF> >0x28 TIF> >0x0D TIF> >0x28 TIF> >0x0D TIF> >0x21 TIF> >0x0D TIF> >0x21 TIF> >0x0D TIF> >0x28 TIF> >0x0D TIF> >0x21 TIF> >0x0D TIF> >0x21 TIF> >0x0D TIF> >0x28 TIF> >0x0D TIF> >0x21 TIF> >0x0D TIF> >0x21 TIF> >0x0D TIF> >0x28 TIF> >0x0D TIF> >0x21 TIF> >0x0D TIF> >0x21 TIF> >0x0D TIF> >0x28 TIF>
 >0x0D TIF> >0x21 TIF> >0x0D TIF> >0x21 TIF> >0x0D TIF> >0x28 TIF> >0x0D TIF> >0x21 TIF> >0x0D TIF> >0x21 TIF> >0x0D TIF> >0x28 TIF> >0x0D TIF> >0x21 TIF> >0x0D TIF> >0x21 TIF> >0x10B TIF>Found SW-DP with ID 0x2BA01477 >0x0D TIF> >0x28 TIF> >0x0D TIF> >0x28 TIF> >0x0D TIF> >0x28 TIF> >0x0D TIF> >0x28 TIF> >0x0D TIF> >0x21 TIF> >0x0D TIF> >0x28 TIF>Scanning AP map to find all available APs >0x0D TIF> >0x28 TIF> >0x0D TIF> >0x21 TIF> >0x0D TIF> >0x21 TIF> >0x0D TIF> >0x28 TIF> >0x0D TIF> >0x21 TIF>
 >0x0D TIF> >0x21 TIF>AP[1]: Stopped AP scan as end of AP map has been reachedAP[0]: AHB-AP (IDR: 0x24770011)Iterating through AP map to find AHB-AP to use >0x42 TIF> >0x28 TIF> >0x0D TIF> >0x28 TIF> >0x0D TIF> >0x21 TIF> >0x0D TIF> >0x21 TIF> >0x42 TIF> >0x28 TIF> >0x0D TIF> >0x28 TIF> >0x0D TIF> >0x28 TIF> >0x0D TIF> >0x21 TIF> >0x0D TIF> >0x21 TIF>AP[0]: Core foundAP[0]: AHB-AP ROM base: 0xE00FF000 >0x0D TIF> >0x28 TIF> >0x0D TIF> >0x28 TIF> >0x0D TIF> >0x28 TIF> >0x0D TIF> >0x21 TIF> >0x0D TIF>
 >0x21 TIF>CPUID register: 0x410FC241. Implementer code: 0x41 (ARM)Found Cortex-M4 r0p1, Little endian. -- CPU_ReadMem(4 bytes @ 0xE000EDF0) -- CPU_WriteMem(4 bytes @ 0xE000EDF0) -- CPU_ReadMem(4 bytes @ 0xE0002000)FPUnit: 6 code (BP) slots and 2 literal slots -- CPU_ReadMem(4 bytes @ 0xE000EDFC) -- CPU_WriteMem(4 bytes @ 0xE000EDFC) -- CPU_ReadMem(4 bytes @ 0xE0001000) -- CPU_WriteMem(4 bytes @ 0xE0001000) -- CPU_ReadMem(4 bytes @ 0xE000ED88) -- CPU_WriteMem(4 bytes @ 0xE000ED88)
 -- CPU_ReadMem(4 bytes @ 0xE000ED88) -- CPU_WriteMem(4 bytes @ 0xE000ED88)CoreSight components:ROMTbl[0] @ E00FF000 -- CPU_ReadMem(16 bytes @ 0xE00FF000) -- CPU_ReadMem(16 bytes @ 0xE000EFF0) -- CPU_ReadMem(16 bytes @ 0xE000EFE0)ROMTbl[0][0]: E000E000, CID: B105E00D, PID: 000BB00C SCS-M7 -- CPU_ReadMem(16 bytes @ 0xE0001FF0) -- CPU_ReadMem(16 bytes @ 0xE0001FE0)ROMTbl[0][1]: E0001000, CID: B105E00D, PID: 003BB002 DWT -- CPU_ReadMem(16 bytes @ 0xE0002FF0) -- CPU_ReadMem(16 bytes @ 0xE0002FE0)
ROMTbl[0][2]: E0002000, CID: B105E00D, PID: 002BB003 FPB -- CPU_ReadMem(16 bytes @ 0xE0000FF0) -- CPU_ReadMem(16 bytes @ 0xE0000FE0)ROMTbl[0][3]: E0000000, CID: B105E00D, PID: 003BB001 ITM -- CPU_ReadMem(16 bytes @ 0xE00FF010) -- CPU_ReadMem(16 bytes @ 0xE0040FF0) -- CPU_ReadMem(16 bytes @ 0xE0040FE0)ROMTbl[0][4]: E0040000, CID: B105900D, PID: 000BB9A1 TPIU -- CPU_ReadMem(16 bytes @ 0xE0041FF0) -- CPU_ReadMem(16 bytes @ 0xE0041FE0)ROMTbl[0][5]: E0041000, CID: B105900D, PID: 000BB925 ETM >0x0D TIF>
 >0x21 TIF>  returns 0x2BA01477 (0363ms, 0557ms total)
T2598 008:609 JLINK_GetDLLVersion()  returns 63008 (0000ms, 0557ms total)
T2598 008:609 JLINK_CORE_GetFound()  returns 0xE0000FF (0000ms, 0557ms total)
T2598 008:609 JLINK_GetDebugInfo(0x100 = JLINKARM_ROM_TABLE_ADDR_INDEX) -- Value=0xE00FF000  returns 0x00 (0000ms, 0557ms total)
T2598 008:612 JLINK_GetDebugInfo(0x100 = JLINKARM_ROM_TABLE_ADDR_INDEX) -- Value=0xE00FF000  returns 0x00 (0000ms, 0557ms total)
T2598 008:612 JLINK_GetDebugInfo(0x101 = JLINKARM_DEBUG_INFO_ETM_ADDR_INDEX) -- Value=0xE0041000  returns 0x00 (0000ms, 0557ms total)
T2598 008:612 JLINK_ReadMemEx(0xE0041FD0, 0x0020 Bytes, ..., Flags = 0x02000004) -- CPU_ReadMem(32 bytes @ 0xE0041FD0) - Data: 04 00 00 00 00 00 00 00 00 00 00 00 00 00 00 00 ...  returns 0x20 (0002ms, 0559ms total)
T2598 008:614 JLINK_GetDebugInfo(0x102 = JLINKARM_DEBUG_INFO_MTB_ADDR_INDEX) -- Value=0x00000000  returns 0x00 (0000ms, 0559ms total)
T2598 008:614 JLINK_GetDebugInfo(0x103 = JLINKARM_DEBUG_INFO_TPIU_ADDR_INDEX) -- Value=0xE0040000  returns 0x00 (0000ms, 0559ms total)
T2598 008:614 JLINK_GetDebugInfo(0x104 = JLINKARM_DEBUG_INFO_ITM_ADDR_INDEX) -- Value=0xE0000000  returns 0x00 (0000ms, 0559ms total)
T2598 008:614 JLINK_GetDebugInfo(0x105 = JLINKARM_DEBUG_INFO_DWT_ADDR_INDEX) -- Value=0xE0001000  returns 0x00 (0000ms, 0559ms total)
T2598 008:614 JLINK_GetDebugInfo(0x106 = JLINKARM_DEBUG_INFO_FPB_ADDR_INDEX) -- Value=0xE0002000  returns 0x00 (0000ms, 0559ms total)
T2598 008:614 JLINK_GetDebugInfo(0x107 = JLINKARM_DEBUG_INFO_NVIC_ADDR_INDEX) -- Value=0xE000E000  returns 0x00 (0000ms, 0559ms total)
T2598 008:614 JLINK_GetDebugInfo(0x10C = JLINKARM_DEBUG_INFO_DBG_ADDR_INDEX) -- Value=0xE000EDF0  returns 0x00 (0000ms, 0559ms total)
T2598 008:614 JLINK_GetDebugInfo(0x01 = Unknown) -- Value=0x00000001  returns 0x00 (0000ms, 0559ms total)
T2598 008:614 JLINK_ReadMemU32(0xE000ED00, 0x0001 Items, ...) -- CPU_ReadMem(4 bytes @ 0xE000ED00) - Data: 41 C2 0F 41  returns 0x01 (0001ms, 0560ms total)
T2598 008:615 JLINK_GetDebugInfo(0x10F = JLINKARM_DEBUG_INFO_HAS_CORTEX_M_SECURITY_EXT_INDEX) -- Value=0x00000000  returns 0x00 (0000ms, 0560ms total)
T2598 008:615 JLINK_SetResetType(JLINKARM_CM3_RESET_TYPE_NORMAL)  returns JLINKARM_CM3_RESET_TYPE_NORMAL (0000ms, 0560ms total)
T2598 008:615 JLINK_Reset() -- CPU is running -- CPU_WriteMem(4 bytes @ 0xE000EDF0) -- CPU is running -- CPU_WriteMem(4 bytes @ 0xE000EDFC)Reset: Halt core after reset via DEMCR.VC_CORERESET. >0x35 TIF>Reset: Reset device via AIRCR.SYSRESETREQ. -- CPU is running -- CPU_WriteMem(4 bytes @ 0xE000ED0C) >0x0D TIF> >0x28 TIF> -- CPU_ReadMem(4 bytes @ 0xE000EDF0) -- CPU_ReadMem(4 bytes @ 0xE000EDF0) -- CPU is running -- CPU_WriteMem(4 bytes @ 0xE000EDF0) -- CPU is running -- CPU_WriteMem(4 bytes @ 0xE000EDFC)
 -- CPU_ReadMem(4 bytes @ 0xE000EDF0) -- CPU_WriteMem(4 bytes @ 0xE0002000) -- CPU_ReadMem(4 bytes @ 0xE000EDFC) -- CPU_ReadMem(4 bytes @ 0xE0001000) (0078ms, 0638ms total)
T2598 008:693 JLINK_Halt()  returns 0x00 (0000ms, 0638ms total)
T2598 008:693 JLINK_ReadMemU32(0xE000EDF0, 0x0001 Items, ...) -- CPU_ReadMem(4 bytes @ 0xE000EDF0) - Data: 03 00 03 00  returns 0x01 (0001ms, 0639ms total)
T2598 008:694 JLINK_WriteU32(0xE000EDF0, 0xA05F0003) -- CPU_WriteMem(4 bytes @ 0xE000EDF0)  returns 0x00 (0001ms, 0640ms total)
T2598 008:695 JLINK_WriteU32(0xE000EDFC, 0x01000000) -- CPU_WriteMem(4 bytes @ 0xE000EDFC)  returns 0x00 (0001ms, 0641ms total)
T2598 008:708 JLINK_GetHWStatus(...)  returns 0x00 (0001ms, 0642ms total)
T2598 008:717 JLINK_GetNumBPUnits(Type = 0xFFFFFF00)  returns 0x06 (0000ms, 0642ms total)
T2598 008:717 JLINK_GetNumBPUnits(Type = 0xF0)  returns 0x2000 (0000ms, 0642ms total)
T2598 008:717 JLINK_GetNumWPUnits()  returns 0x04 (0000ms, 0642ms total)
T2598 008:725 JLINK_GetSpeed()  returns 0xFA0 (0000ms, 0642ms total)
T2598 008:730 JLINK_ReadMemU32(0xE000E004, 0x0001 Items, ...) -- CPU_ReadMem(4 bytes @ 0xE000E004) - Data: 02 00 00 00  returns 0x01 (0002ms, 0644ms total)
T2598 008:732 JLINK_ReadMemU32(0xE000E004, 0x0001 Items, ...) -- CPU_ReadMem(4 bytes @ 0xE000E004) - Data: 02 00 00 00  returns 0x01 (0001ms, 0645ms total)
T2598 008:733 JLINK_WriteMemEx(0xE0001000, 0x001C Bytes, ..., Flags = 0x02000004) - Data: 01 00 00 00 00 00 00 00 00 00 00 00 00 00 00 00 ... -- CPU_WriteMem(28 bytes @ 0xE0001000)  returns 0x1C (0001ms, 0646ms total)
T2598 008:734 JLINK_Halt()  returns 0x00 (0000ms, 0646ms total)
T2598 008:734 JLINK_IsHalted()  returns TRUE (0000ms, 0646ms total)
T2598 008:737 JLINK_WriteMem(0x20000000, 0x0180 Bytes, ...) - Data: 00 BE 0A E0 0D 78 2D 06 68 40 08 24 40 00 00 D3 ... -- CPU_WriteMem(384 bytes @ 0x20000000)  returns 0x180 (0002ms, 0648ms total)
T2598 008:739 JLINK_WriteReg(R0, 0x08000000)  returns 0x00 (0000ms, 0648ms total)
T2598 008:739 JLINK_WriteReg(R1, 0x00B71B00)  returns 0x00 (0000ms, 0648ms total)
T2598 008:739 JLINK_WriteReg(R2, 0x00000001)  returns 0x00 (0000ms, 0648ms total)
T2598 008:739 JLINK_WriteReg(R3, 0x00000000)  returns 0x00 (0000ms, 0648ms total)
T2598 008:739 JLINK_WriteReg(R4, 0x00000000)  returns 0x00 (0000ms, 0648ms total)
T2598 008:739 JLINK_WriteReg(R5, 0x00000000)  returns 0x00 (0000ms, 0648ms total)
T2598 008:739 JLINK_WriteReg(R6, 0x00000000)  returns 0x00 (0000ms, 0648ms total)
T2598 008:739 JLINK_WriteReg(R7, 0x00000000)  returns 0x00 (0000ms, 0648ms total)
T2598 008:739 JLINK_WriteReg(R8, 0x00000000)  returns 0x00 (0000ms, 0648ms total)
T2598 008:739 JLINK_WriteReg(R9, 0x2000017C)  returns 0x00 (0000ms, 0648ms total)
T2598 008:739 JLINK_WriteReg(R10, 0x00000000)  returns 0x00 (0000ms, 0648ms total)
T2598 008:739 JLINK_WriteReg(R11, 0x00000000)  returns 0x00 (0000ms, 0648ms total)
T2598 008:739 JLINK_WriteReg(R12, 0x00000000)  returns 0x00 (0000ms, 0648ms total)
T2598 008:739 JLINK_WriteReg(R13 (SP), 0x20001000)  returns 0x00 (0000ms, 0648ms total)
T2598 008:739 JLINK_WriteReg(R14, 0x20000001)  returns 0x00 (0000ms, 0648ms total)
T2598 008:739 JLINK_WriteReg(R15 (PC), 0x20000054)  returns 0x00 (0000ms, 0648ms total)
T2598 008:739 JLINK_WriteReg(XPSR, 0x01000000)  returns 0x00 (0000ms, 0648ms total)
T2598 008:739 JLINK_WriteReg(MSP, 0x20001000)  returns 0x00 (0000ms, 0648ms total)
T2598 008:739 JLINK_WriteReg(PSP, 0x20001000)  returns 0x00 (0000ms, 0648ms total)
T2598 008:739 JLINK_WriteReg(CFBP, 0x00000000)  returns 0x00 (0000ms, 0648ms total)
T2598 008:740 JLINK_SetBPEx(Addr = 0x20000000, Type = 0xFFFFFFF2) -- CPU_ReadMem(2 bytes @ 0x20000000)  returns 0x00000001 (0000ms, 0648ms total)
T2598 008:740 JLINK_Go() -- CPU_WriteMem(2 bytes @ 0x20000000) -- CPU_ReadMem(4 bytes @ 0xE0001000) -- CPU_WriteMem(4 bytes @ 0xE0002008) -- CPU_WriteMem(4 bytes @ 0xE000200C) -- CPU_WriteMem(4 bytes @ 0xE0002010) -- CPU_WriteMem(4 bytes @ 0xE0002014) -- CPU_WriteMem(4 bytes @ 0xE0002018) -- CPU_WriteMem(4 bytes @ 0xE000201C) -- CPU_WriteMem(4 bytes @ 0xE0001004) (0007ms, 0655ms total)
T2598 008:747 JLINK_IsHalted() -- CPU_ReadMem(2 bytes @ 0x20000000)  returns TRUE (0004ms, 0659ms total)
T2598 008:751 JLINK_ReadReg(R15 (PC))  returns 0x20000000 (0000ms, 0655ms total)
T2598 008:751 JLINK_ClrBPEx(BPHandle = 0x00000001)  returns 0x00 (0000ms, 0655ms total)
T2598 008:751 JLINK_ReadReg(R0)  returns 0x00000000 (0000ms, 0655ms total)
T2598 008:752 JLINK_WriteReg(R0, 0x080C0000)  returns 0x00 (0000ms, 0655ms total)
T2598 008:752 JLINK_WriteReg(R1, 0x00020000)  returns 0x00 (0000ms, 0655ms total)
T2598 008:752 JLINK_WriteReg(R2, 0x000000FF)  returns 0x00 (0000ms, 0655ms total)
T2598 008:752 JLINK_WriteReg(R3, 0x00000000)  returns 0x00 (0000ms, 0655ms total)
T2598 008:752 JLINK_WriteReg(R4, 0x00000000)  returns 0x00 (0000ms, 0655ms total)
T2598 008:752 JLINK_WriteReg(R5, 0x00000000)  returns 0x00 (0000ms, 0655ms total)
T2598 008:752 JLINK_WriteReg(R6, 0x00000000)  returns 0x00 (0000ms, 0655ms total)
T2598 008:752 JLINK_WriteReg(R7, 0x00000000)  returns 0x00 (0000ms, 0655ms total)
T2598 008:752 JLINK_WriteReg(R8, 0x00000000)  returns 0x00 (0000ms, 0655ms total)
T2598 008:752 JLINK_WriteReg(R9, 0x2000017C)  returns 0x00 (0000ms, 0655ms total)
T2598 008:752 JLINK_WriteReg(R10, 0x00000000)  returns 0x00 (0000ms, 0655ms total)
T2598 008:752 JLINK_WriteReg(R11, 0x00000000)  returns 0x00 (0000ms, 0655ms total)
T2598 008:752 JLINK_WriteReg(R12, 0x00000000)  returns 0x00 (0000ms, 0655ms total)
T2598 008:752 JLINK_WriteReg(R13 (SP), 0x20001000)  returns 0x00 (0000ms, 0655ms total)
T2598 008:752 JLINK_WriteReg(R14, 0x20000001)  returns 0x00 (0000ms, 0655ms total)
T2598 008:752 JLINK_WriteReg(R15 (PC), 0x20000020)  returns 0x00 (0000ms, 0655ms total)
T2598 008:752 JLINK_WriteReg(XPSR, 0x01000000)  returns 0x00 (0000ms, 0655ms total)
T2598 008:752 JLINK_WriteReg(MSP, 0x20001000)  returns 0x00 (0000ms, 0655ms total)
T2598 008:752 JLINK_WriteReg(PSP, 0x20001000)  returns 0x00 (0000ms, 0655ms total)
T2598 008:752 JLINK_WriteReg(CFBP, 0x00000000)  returns 0x00 (0000ms, 0655ms total)
T2598 008:752 JLINK_SetBPEx(Addr = 0x20000000, Type = 0xFFFFFFF2)  returns 0x00000002 (0000ms, 0655ms total)
T2598 008:752 JLINK_Go() -- CPU_ReadMem(4 bytes @ 0xE0001000) (0003ms, 0658ms total)
T2598 008:755 JLINK_IsHalted()  returns FALSE (0001ms, 0659ms total)
T2598 008:794 JLINK_IsHalted()  returns FALSE (0001ms, 0659ms total)
T2598 008:796 JLINK_IsHalted()  returns FALSE (0000ms, 0658ms total)
T2598 008:797 JLINK_IsHalted()  returns FALSE (0000ms, 0658ms total)
T2598 008:798 JLINK_IsHalted()  returns FALSE (0000ms, 0658ms total)
T2598 008:799 JLINK_IsHalted()  returns FALSE (0000ms, 0658ms total)
T2598 008:800 JLINK_IsHalted()  returns FALSE (0000ms, 0658ms total)
T2598 008:801 JLINK_IsHalted()  returns FALSE (0000ms, 0658ms total)
T2598 008:802 JLINK_IsHalted()  returns FALSE (0000ms, 0658ms total)
T2598 008:803 JLINK_IsHalted()  returns FALSE (0000ms, 0658ms total)
T2598 008:804 JLINK_IsHalted()  returns FALSE (0000ms, 0658ms total)
T2598 008:805 JLINK_IsHalted()  returns FALSE (0000ms, 0658ms total)
T2598 008:806 JLINK_IsHalted()  returns FALSE (0000ms, 0658ms total)
T2598 008:807 JLINK_IsHalted()  returns FALSE (0000ms, 0658ms total)
T2598 008:808 JLINK_IsHalted()  returns FALSE (0000ms, 0658ms total)
T2598 008:809 JLINK_IsHalted()  returns FALSE (0000ms, 0658ms total)
T2598 008:810 JLINK_IsHalted()  returns FALSE (0000ms, 0658ms total)
T2598 008:811 JLINK_IsHalted()  returns FALSE (0000ms, 0658ms total)
T2598 008:812 JLINK_IsHalted()  returns FALSE (0000ms, 0658ms total)
T2598 008:813 JLINK_IsHalted()  returns FALSE (0000ms, 0658ms total)
T2598 008:814 JLINK_IsHalted()  returns FALSE (0000ms, 0658ms total)
T2598 008:815 JLINK_IsHalted()  returns FALSE (0000ms, 0658ms total)
T2598 008:816 JLINK_IsHalted()  returns FALSE (0000ms, 0658ms total)
T2598 008:817 JLINK_IsHalted()  returns FALSE (0000ms, 0658ms total)
T2598 008:818 JLINK_IsHalted()  returns FALSE (0000ms, 0658ms total)
T2598 008:819 JLINK_IsHalted()  returns FALSE (0000ms, 0658ms total)
T2598 008:820 JLINK_IsHalted()  returns FALSE (0000ms, 0658ms total)
T2598 008:821 JLINK_IsHalted()  returns FALSE (0000ms, 0658ms total)
T2598 008:822 JLINK_IsHalted()  returns FALSE (0000ms, 0658ms total)
T2598 008:823 JLINK_IsHalted()  returns FALSE (0000ms, 0658ms total)
T2598 008:824 JLINK_IsHalted()  returns FALSE (0000ms, 0658ms total)
T2598 008:825 JLINK_IsHalted()  returns FALSE (0000ms, 0658ms total)
T2598 008:826 JLINK_IsHalted()  returns FALSE (0000ms, 0658ms total)
T2598 008:827 JLINK_IsHalted()  returns FALSE (0000ms, 0658ms total)
T2598 008:828 JLINK_IsHalted()  returns FALSE (0000ms, 0658ms total)
T2598 008:829 JLINK_IsHalted()  returns FALSE (0000ms, 0658ms total)
T2598 008:830 JLINK_IsHalted()  returns FALSE (0000ms, 0658ms total)
T2598 008:831 JLINK_IsHalted()  returns FALSE (0000ms, 0658ms total)
T2598 008:832 JLINK_IsHalted()  returns FALSE (0000ms, 0658ms total)
T2598 008:833 JLINK_IsHalted()  returns FALSE (0000ms, 0658ms total)
T2598 008:835 JLINK_IsHalted()  returns FALSE (0001ms, 0659ms total)
T2598 008:837 JLINK_IsHalted()  returns FALSE (0000ms, 0658ms total)
T2598 008:838 JLINK_IsHalted()  returns FALSE (0000ms, 0658ms total)
T2598 008:839 JLINK_IsHalted()  returns FALSE (0000ms, 0658ms total)
T2598 008:840 JLINK_IsHalted()  returns FALSE (0000ms, 0658ms total)
T2598 008:841 JLINK_IsHalted()  returns FALSE (0000ms, 0658ms total)
T2598 008:842 JLINK_IsHalted()  returns FALSE (0001ms, 0659ms total)
T2598 008:846 JLINK_IsHalted()  returns FALSE (0001ms, 0659ms total)
T2598 008:848 JLINK_IsHalted()  returns FALSE (0000ms, 0658ms total)
T2598 008:849 JLINK_IsHalted()  returns FALSE (0000ms, 0658ms total)
T2598 008:850 JLINK_IsHalted()  returns FALSE (0000ms, 0658ms total)
T2598 008:851 JLINK_IsHalted()  returns FALSE (0000ms, 0658ms total)
T2598 008:852 JLINK_IsHalted()  returns FALSE (0000ms, 0658ms total)
T2598 008:853 JLINK_IsHalted()  returns FALSE (0000ms, 0658ms total)
T2598 008:854 JLINK_IsHalted()  returns FALSE (0000ms, 0658ms total)
T2598 008:855 JLINK_IsHalted()  returns FALSE (0000ms, 0658ms total)
T2598 008:856 JLINK_IsHalted()  returns FALSE (0000ms, 0658ms total)
T2598 008:857 JLINK_IsHalted()  returns FALSE (0000ms, 0658ms total)
T2598 008:858 JLINK_IsHalted()  returns FALSE (0000ms, 0658ms total)
T2598 008:859 JLINK_IsHalted()  returns FALSE (0000ms, 0658ms total)
T2598 008:860 JLINK_IsHalted()  returns FALSE (0000ms, 0658ms total)
T2598 008:861 JLINK_IsHalted()  returns FALSE (0000ms, 0658ms total)
T2598 008:862 JLINK_IsHalted()  returns FALSE (0000ms, 0658ms total)
T2598 008:863 JLINK_IsHalted()  returns FALSE (0000ms, 0658ms total)
T2598 008:864 JLINK_IsHalted()  returns FALSE (0000ms, 0658ms total)
T2598 008:865 JLINK_IsHalted()  returns FALSE (0000ms, 0658ms total)
T2598 008:866 JLINK_IsHalted()  returns FALSE (0000ms, 0658ms total)
T2598 008:867 JLINK_IsHalted()  returns FALSE (0000ms, 0658ms total)
T2598 008:868 JLINK_IsHalted()  returns FALSE (0000ms, 0658ms total)
T2598 008:869 JLINK_IsHalted()  returns FALSE (0000ms, 0658ms total)
T2598 008:870 JLINK_IsHalted() -- CPU_ReadMem(2 bytes @ 0x20000000)  returns TRUE (0003ms, 0661ms total)
T2598 008:873 JLINK_ReadReg(R15 (PC))  returns 0x20000000 (0000ms, 0658ms total)
T2598 008:873 JLINK_ClrBPEx(BPHandle = 0x00000002)  returns 0x00 (0000ms, 0658ms total)
T2598 008:873 JLINK_ReadReg(R0)  returns 0x00000000 (0000ms, 0658ms total)
T2598 008:874 JLINK_WriteReg(R0, 0x080E0000)  returns 0x00 (0000ms, 0658ms total)
T2598 008:874 JLINK_WriteReg(R1, 0x00020000)  returns 0x00 (0000ms, 0658ms total)
T2598 008:874 JLINK_WriteReg(R2, 0x000000FF)  returns 0x00 (0000ms, 0658ms total)
T2598 008:874 JLINK_WriteReg(R3, 0x00000000)  returns 0x00 (0000ms, 0658ms total)
T2598 008:874 JLINK_WriteReg(R4, 0x00000000)  returns 0x00 (0000ms, 0658ms total)
T2598 008:874 JLINK_WriteReg(R5, 0x00000000)  returns 0x00 (0000ms, 0658ms total)
T2598 008:874 JLINK_WriteReg(R6, 0x00000000)  returns 0x00 (0000ms, 0658ms total)
T2598 008:874 JLINK_WriteReg(R7, 0x00000000)  returns 0x00 (0000ms, 0658ms total)
T2598 008:874 JLINK_WriteReg(R8, 0x00000000)  returns 0x00 (0000ms, 0658ms total)
T2598 008:874 JLINK_WriteReg(R9, 0x2000017C)  returns 0x00 (0000ms, 0658ms total)
T2598 008:874 JLINK_WriteReg(R10, 0x00000000)  returns 0x00 (0000ms, 0658ms total)
T2598 008:874 JLINK_WriteReg(R11, 0x00000000)  returns 0x00 (0000ms, 0658ms total)
T2598 008:874 JLINK_WriteReg(R12, 0x00000000)  returns 0x00 (0000ms, 0658ms total)
T2598 008:874 JLINK_WriteReg(R13 (SP), 0x20001000)  returns 0x00 (0000ms, 0658ms total)
T2598 008:874 JLINK_WriteReg(R14, 0x20000001)  returns 0x00 (0000ms, 0658ms total)
T2598 008:874 JLINK_WriteReg(R15 (PC), 0x20000020)  returns 0x00 (0000ms, 0658ms total)
T2598 008:874 JLINK_WriteReg(XPSR, 0x01000000)  returns 0x00 (0000ms, 0658ms total)
T2598 008:874 JLINK_WriteReg(MSP, 0x20001000)  returns 0x00 (0000ms, 0658ms total)
T2598 008:874 JLINK_WriteReg(PSP, 0x20001000)  returns 0x00 (0000ms, 0658ms total)
T2598 008:874 JLINK_WriteReg(CFBP, 0x00000000)  returns 0x00 (0000ms, 0658ms total)
T2598 008:874 JLINK_SetBPEx(Addr = 0x20000000, Type = 0xFFFFFFF2)  returns 0x00000003 (0000ms, 0658ms total)
T2598 008:874 JLINK_Go() -- CPU_ReadMem(4 bytes @ 0xE0001000) (0004ms, 0662ms total)
T2598 008:878 JLINK_IsHalted()  returns FALSE (0001ms, 0663ms total)
T2598 008:883 JLINK_IsHalted()  returns FALSE (0001ms, 0663ms total)
T2598 008:885 JLINK_IsHalted()  returns FALSE (0001ms, 0663ms total)
T2598 008:887 JLINK_IsHalted()  returns FALSE (0001ms, 0663ms total)
T2598 008:889 JLINK_IsHalted()  returns FALSE (0001ms, 0663ms total)
T2598 008:891 JLINK_IsHalted()  returns FALSE (0001ms, 0663ms total)
T2598 008:893 JLINK_IsHalted()  returns FALSE (0000ms, 0662ms total)
T2598 008:895 JLINK_IsHalted()  returns FALSE (0001ms, 0663ms total)
T2598 008:897 JLINK_IsHalted()  returns FALSE (0000ms, 0662ms total)
T2598 008:898 JLINK_IsHalted()  returns FALSE (0000ms, 0662ms total)
T2598 008:899 JLINK_IsHalted()  returns FALSE (0000ms, 0662ms total)
T2598 008:900 JLINK_IsHalted()  returns FALSE (0000ms, 0662ms total)
T2598 008:901 JLINK_IsHalted()  returns FALSE (0000ms, 0662ms total)
T2598 008:902 JLINK_IsHalted()  returns FALSE (0000ms, 0662ms total)
T2598 008:903 JLINK_IsHalted()  returns FALSE (0000ms, 0662ms total)
T2598 008:904 JLINK_IsHalted()  returns FALSE (0000ms, 0662ms total)
T2598 008:905 JLINK_IsHalted()  returns FALSE (0000ms, 0662ms total)
T2598 008:906 JLINK_IsHalted()  returns FALSE (0001ms, 0663ms total)
T2598 008:908 JLINK_IsHalted()  returns FALSE (0000ms, 0662ms total)
T2598 008:909 JLINK_IsHalted()  returns FALSE (0000ms, 0662ms total)
T2598 008:913 JLINK_IsHalted()  returns FALSE (0001ms, 0663ms total)
T2598 008:915 JLINK_IsHalted()  returns FALSE (0001ms, 0663ms total)
T2598 008:917 JLINK_IsHalted()  returns FALSE (0001ms, 0663ms total)
T2598 008:922 JLINK_IsHalted()  returns FALSE (0001ms, 0663ms total)
T2598 008:924 JLINK_IsHalted()  returns FALSE (0001ms, 0663ms total)
T2598 008:929 JLINK_IsHalted()  returns FALSE (0001ms, 0663ms total)
T2598 008:931 JLINK_IsHalted()  returns FALSE (0000ms, 0662ms total)
T2598 008:932 JLINK_IsHalted()  returns FALSE (0000ms, 0662ms total)
T2598 008:933 JLINK_IsHalted()  returns FALSE (0000ms, 0662ms total)
T2598 008:936 JLINK_IsHalted()  returns FALSE (0001ms, 0663ms total)
T2598 008:938 JLINK_IsHalted()  returns FALSE (0001ms, 0663ms total)
T2598 008:940 JLINK_IsHalted()  returns FALSE (0001ms, 0663ms total)
T2598 008:947 JLINK_IsHalted()  returns FALSE (0001ms, 0663ms total)
T2598 008:952 JLINK_IsHalted()  returns FALSE (0001ms, 0663ms total)
T2598 008:954 JLINK_IsHalted()  returns FALSE (0001ms, 0663ms total)
T2598 008:956 JLINK_IsHalted()  returns FALSE (0001ms, 0663ms total)
T2598 008:958 JLINK_IsHalted()  returns FALSE (0001ms, 0663ms total)
T2598 008:960 JLINK_IsHalted()  returns FALSE (0001ms, 0663ms total)
T2598 008:962 JLINK_IsHalted()  returns FALSE (0001ms, 0663ms total)
T2598 008:964 JLINK_IsHalted()  returns FALSE (0001ms, 0663ms total)
T2598 008:966 JLINK_IsHalted()  returns FALSE (0001ms, 0663ms total)
T2598 008:968 JLINK_IsHalted()  returns FALSE (0002ms, 0664ms total)
T2598 008:971 JLINK_IsHalted()  returns FALSE (0001ms, 0663ms total)
T2598 008:973 JLINK_IsHalted()  returns FALSE (0000ms, 0662ms total)
T2598 008:974 JLINK_IsHalted()  returns FALSE (0000ms, 0662ms total)
T2598 008:975 JLINK_IsHalted()  returns FALSE (0000ms, 0662ms total)
T2598 008:976 JLINK_IsHalted()  returns FALSE (0000ms, 0662ms total)
T2598 008:977 JLINK_IsHalted()  returns FALSE (0000ms, 0662ms total)
T2598 008:978 JLINK_IsHalted()  returns FALSE (0000ms, 0662ms total)
T2598 008:979 JLINK_IsHalted()  returns FALSE (0000ms, 0662ms total)
T2598 008:980 JLINK_IsHalted()  returns FALSE (0000ms, 0662ms total)
T2598 008:981 JLINK_IsHalted()  returns FALSE (0000ms, 0662ms total)
T2598 008:982 JLINK_IsHalted()  returns FALSE (0000ms, 0662ms total)
T2598 008:983 JLINK_IsHalted()  returns FALSE (0000ms, 0662ms total)
T2598 008:984 JLINK_IsHalted()  returns FALSE (0000ms, 0662ms total)
T2598 008:985 JLINK_IsHalted()  returns FALSE (0000ms, 0662ms total)
T2598 008:986 JLINK_IsHalted()  returns FALSE (0000ms, 0662ms total)
T2598 008:987 JLINK_IsHalted()  returns FALSE (0000ms, 0662ms total)
T2598 008:988 JLINK_IsHalted()  returns FALSE (0000ms, 0662ms total)
T2598 008:989 JLINK_IsHalted()  returns FALSE (0002ms, 0664ms total)
T2598 008:993 JLINK_IsHalted() -- CPU_ReadMem(2 bytes @ 0x20000000)  returns TRUE (0004ms, 0666ms total)
T2598 008:997 JLINK_ReadReg(R15 (PC))  returns 0x20000000 (0000ms, 0662ms total)
T2598 008:997 JLINK_ClrBPEx(BPHandle = 0x00000003)  returns 0x00 (0000ms, 0662ms total)
T2598 008:997 JLINK_ReadReg(R0)  returns 0x00000000 (0000ms, 0662ms total)
T2598 008:998 JLINK_WriteReg(R0, 0x00000001)  returns 0x00 (0000ms, 0662ms total)
T2598 008:998 JLINK_WriteReg(R1, 0x00020000)  returns 0x00 (0000ms, 0662ms total)
T2598 008:998 JLINK_WriteReg(R2, 0x000000FF)  returns 0x00 (0000ms, 0662ms total)
T2598 008:998 JLINK_WriteReg(R3, 0x00000000)  returns 0x00 (0000ms, 0662ms total)
T2598 008:998 JLINK_WriteReg(R4, 0x00000000)  returns 0x00 (0000ms, 0662ms total)
T2598 008:998 JLINK_WriteReg(R5, 0x00000000)  returns 0x00 (0000ms, 0662ms total)
T2598 008:998 JLINK_WriteReg(R6, 0x00000000)  returns 0x00 (0000ms, 0662ms total)
T2598 008:998 JLINK_WriteReg(R7, 0x00000000)  returns 0x00 (0000ms, 0662ms total)
T2598 008:998 JLINK_WriteReg(R8, 0x00000000)  returns 0x00 (0000ms, 0662ms total)
T2598 008:998 JLINK_WriteReg(R9, 0x2000017C)  returns 0x00 (0000ms, 0662ms total)
T2598 008:998 JLINK_WriteReg(R10, 0x00000000)  returns 0x00 (0000ms, 0662ms total)
T2598 008:998 JLINK_WriteReg(R11, 0x00000000)  returns 0x00 (0000ms, 0662ms total)
T2598 008:998 JLINK_WriteReg(R12, 0x00000000)  returns 0x00 (0000ms, 0662ms total)
T2598 008:998 JLINK_WriteReg(R13 (SP), 0x20001000)  returns 0x00 (0000ms, 0662ms total)
T2598 008:998 JLINK_WriteReg(R14, 0x20000001)  returns 0x00 (0000ms, 0662ms total)
T2598 008:998 JLINK_WriteReg(R15 (PC), 0x20000082)  returns 0x00 (0000ms, 0662ms total)
T2598 008:998 JLINK_WriteReg(XPSR, 0x01000000)  returns 0x00 (0000ms, 0662ms total)
T2598 008:998 JLINK_WriteReg(MSP, 0x20001000)  returns 0x00 (0000ms, 0662ms total)
T2598 008:998 JLINK_WriteReg(PSP, 0x20001000)  returns 0x00 (0000ms, 0662ms total)
T2598 008:998 JLINK_WriteReg(CFBP, 0x00000000)  returns 0x00 (0000ms, 0662ms total)
T2598 008:998 JLINK_SetBPEx(Addr = 0x20000000, Type = 0xFFFFFFF2)  returns 0x00000004 (0000ms, 0662ms total)
T2598 008:998 JLINK_Go() -- CPU_ReadMem(4 bytes @ 0xE0001000) (0004ms, 0666ms total)
T2598 009:002 JLINK_IsHalted() -- CPU_ReadMem(2 bytes @ 0x20000000)  returns TRUE (0004ms, 0670ms total)
T2598 009:006 JLINK_ReadReg(R15 (PC))  returns 0x20000000 (0000ms, 0666ms total)
T2598 009:006 JLINK_ClrBPEx(BPHandle = 0x00000004)  returns 0x00 (0000ms, 0666ms total)
T2598 009:006 JLINK_ReadReg(R0)  returns 0x00000000 (0000ms, 0666ms total)
T2598 009:073 JLINK_WriteMem(0x20000000, 0x0180 Bytes, ...) - Data: 00 BE 0A E0 0D 78 2D 06 68 40 08 24 40 00 00 D3 ... -- CPU_WriteMem(384 bytes @ 0x20000000)  returns 0x180 (0002ms, 0668ms total)
T2598 009:075 JLINK_WriteReg(R0, 0x08000000)  returns 0x00 (0000ms, 0668ms total)
T2598 009:075 JLINK_WriteReg(R1, 0x00B71B00)  returns 0x00 (0000ms, 0668ms total)
T2598 009:075 JLINK_WriteReg(R2, 0x00000002)  returns 0x00 (0000ms, 0668ms total)
T2598 009:075 JLINK_WriteReg(R3, 0x00000000)  returns 0x00 (0000ms, 0668ms total)
T2598 009:075 JLINK_WriteReg(R4, 0x00000000)  returns 0x00 (0000ms, 0668ms total)
T2598 009:075 JLINK_WriteReg(R5, 0x00000000)  returns 0x00 (0000ms, 0668ms total)
T2598 009:075 JLINK_WriteReg(R6, 0x00000000)  returns 0x00 (0000ms, 0668ms total)
T2598 009:075 JLINK_WriteReg(R7, 0x00000000)  returns 0x00 (0000ms, 0668ms total)
T2598 009:076 JLINK_WriteReg(R8, 0x00000000)  returns 0x00 (0000ms, 0669ms total)
T2598 009:076 JLINK_WriteReg(R9, 0x2000017C)  returns 0x00 (0000ms, 0669ms total)
T2598 009:076 JLINK_WriteReg(R10, 0x00000000)  returns 0x00 (0000ms, 0669ms total)
T2598 009:076 JLINK_WriteReg(R11, 0x00000000)  returns 0x00 (0000ms, 0669ms total)
T2598 009:076 JLINK_WriteReg(R12, 0x00000000)  returns 0x00 (0000ms, 0669ms total)
T2598 009:076 JLINK_WriteReg(R13 (SP), 0x20001000)  returns 0x00 (0000ms, 0669ms total)
T2598 009:076 JLINK_WriteReg(R14, 0x20000001)  returns 0x00 (0000ms, 0669ms total)
T2598 009:076 JLINK_WriteReg(R15 (PC), 0x20000054)  returns 0x00 (0000ms, 0669ms total)
T2598 009:076 JLINK_WriteReg(XPSR, 0x01000000)  returns 0x00 (0000ms, 0669ms total)
T2598 009:076 JLINK_WriteReg(MSP, 0x20001000)  returns 0x00 (0000ms, 0669ms total)
T2598 009:076 JLINK_WriteReg(PSP, 0x20001000)  returns 0x00 (0000ms, 0669ms total)
T2598 009:076 JLINK_WriteReg(CFBP, 0x00000000)  returns 0x00 (0000ms, 0669ms total)
T2598 009:076 JLINK_SetBPEx(Addr = 0x20000000, Type = 0xFFFFFFF2) -- CPU_ReadMem(2 bytes @ 0x20000000)  returns 0x00000005 (0002ms, 0671ms total)
T2598 009:078 JLINK_Go() -- CPU_WriteMem(2 bytes @ 0x20000000) -- CPU_ReadMem(4 bytes @ 0xE0001000) (0004ms, 0675ms total)
T2598 009:082 JLINK_IsHalted() -- CPU_ReadMem(2 bytes @ 0x20000000)  returns TRUE (0004ms, 0679ms total)
T2598 009:086 JLINK_ReadReg(R15 (PC))  returns 0x20000000 (0000ms, 0675ms total)
T2598 009:086 JLINK_ClrBPEx(BPHandle = 0x00000005)  returns 0x00 (0000ms, 0675ms total)
T2598 009:086 JLINK_ReadReg(R0)  returns 0x00000000 (0000ms, 0675ms total)
T2598 009:087 JLINK_WriteMem(0x20000180, 0x0280 Bytes, ...) - Data: C0 39 00 20 C1 01 0C 08 23 13 0C 08 79 0A 0C 08 ... -- CPU_WriteMem(640 bytes @ 0x20000180)  returns 0x280 (0002ms, 0677ms total)
T2598 009:089 JLINK_WriteMem(0x20000400, 0x0180 Bytes, ...) - Data: 05 20 AD F8 00 00 00 20 AD F8 08 00 AD F8 02 00 ... -- CPU_WriteMem(384 bytes @ 0x20000400)  returns 0x180 (0002ms, 0679ms total)
T2598 009:091 JLINK_WriteReg(R0, 0x080C0000)  returns 0x00 (0001ms, 0680ms total)
T2598 009:092 JLINK_WriteReg(R1, 0x00000400)  returns 0x00 (0000ms, 0680ms total)
T2598 009:092 JLINK_WriteReg(R2, 0x20000180)  returns 0x00 (0000ms, 0680ms total)
T2598 009:092 JLINK_WriteReg(R3, 0x00000000)  returns 0x00 (0000ms, 0680ms total)
T2598 009:092 JLINK_WriteReg(R4, 0x00000000)  returns 0x00 (0000ms, 0680ms total)
T2598 009:092 JLINK_WriteReg(R5, 0x00000000)  returns 0x00 (0000ms, 0680ms total)
T2598 009:092 JLINK_WriteReg(R6, 0x00000000)  returns 0x00 (0000ms, 0680ms total)
T2598 009:092 JLINK_WriteReg(R7, 0x00000000)  returns 0x00 (0000ms, 0680ms total)
T2598 009:092 JLINK_WriteReg(R8, 0x00000000)  returns 0x00 (0000ms, 0680ms total)
T2598 009:092 JLINK_WriteReg(R9, 0x2000017C)  returns 0x00 (0000ms, 0680ms total)
T2598 009:092 JLINK_WriteReg(R10, 0x00000000)  returns 0x00 (0000ms, 0680ms total)
T2598 009:092 JLINK_WriteReg(R11, 0x00000000)  returns 0x00 (0000ms, 0680ms total)
T2598 009:092 JLINK_WriteReg(R12, 0x00000000)  returns 0x00 (0000ms, 0680ms total)
T2598 009:092 JLINK_WriteReg(R13 (SP), 0x20001000)  returns 0x00 (0000ms, 0680ms total)
T2598 009:092 JLINK_WriteReg(R14, 0x20000001)  returns 0x00 (0000ms, 0680ms total)
T2598 009:092 JLINK_WriteReg(R15 (PC), 0x20000108)  returns 0x00 (0000ms, 0680ms total)
T2598 009:092 JLINK_WriteReg(XPSR, 0x01000000)  returns 0x00 (0000ms, 0680ms total)
T2598 009:092 JLINK_WriteReg(MSP, 0x20001000)  returns 0x00 (0000ms, 0680ms total)
T2598 009:092 JLINK_WriteReg(PSP, 0x20001000)  returns 0x00 (0000ms, 0680ms total)
T2598 009:092 JLINK_WriteReg(CFBP, 0x00000000)  returns 0x00 (0000ms, 0680ms total)
T2598 009:092 JLINK_SetBPEx(Addr = 0x20000000, Type = 0xFFFFFFF2)  returns 0x00000006 (0000ms, 0680ms total)
T2598 009:092 JLINK_Go() -- CPU_ReadMem(4 bytes @ 0xE0001000) (0009ms, 0689ms total)
T2598 009:101 JLINK_IsHalted()  returns FALSE (0001ms, 0690ms total)
T2598 009:108 JLINK_IsHalted() -- CPU_ReadMem(2 bytes @ 0x20000000)  returns TRUE (0004ms, 0693ms total)
T2598 009:112 JLINK_ReadReg(R15 (PC))  returns 0x20000000 (0000ms, 0689ms total)
T2598 009:112 JLINK_ClrBPEx(BPHandle = 0x00000006)  returns 0x00 (0000ms, 0689ms total)
T2598 009:112 JLINK_ReadReg(R0)  returns 0x00000000 (0000ms, 0689ms total)
T2598 009:113 JLINK_WriteMem(0x20000180, 0x0280 Bytes, ...) - Data: 05 D0 01 29 27 D0 02 29 28 D0 4F F4 40 75 00 F0 ... -- CPU_WriteMem(640 bytes @ 0x20000180)  returns 0x280 (0003ms, 0692ms total)
T2598 009:116 JLINK_WriteMem(0x20000400, 0x0180 Bytes, ...) - Data: 02 68 92 00 A2 F1 C0 42 C2 F8 40 11 01 68 71 B3 ... -- CPU_WriteMem(384 bytes @ 0x20000400)  returns 0x180 (0002ms, 0694ms total)
T2598 009:118 JLINK_WriteReg(R0, 0x080C0400)  returns 0x00 (0000ms, 0694ms total)
T2598 009:118 JLINK_WriteReg(R1, 0x00000400)  returns 0x00 (0000ms, 0694ms total)
T2598 009:118 JLINK_WriteReg(R2, 0x20000180)  returns 0x00 (0000ms, 0694ms total)
T2598 009:118 JLINK_WriteReg(R3, 0x00000000)  returns 0x00 (0000ms, 0694ms total)
T2598 009:118 JLINK_WriteReg(R4, 0x00000000)  returns 0x00 (0000ms, 0694ms total)
T2598 009:118 JLINK_WriteReg(R5, 0x00000000)  returns 0x00 (0000ms, 0694ms total)
T2598 009:118 JLINK_WriteReg(R6, 0x00000000)  returns 0x00 (0000ms, 0694ms total)
T2598 009:118 JLINK_WriteReg(R7, 0x00000000)  returns 0x00 (0000ms, 0694ms total)
T2598 009:118 JLINK_WriteReg(R8, 0x00000000)  returns 0x00 (0000ms, 0694ms total)
T2598 009:118 JLINK_WriteReg(R9, 0x2000017C)  returns 0x00 (0000ms, 0694ms total)
T2598 009:118 JLINK_WriteReg(R10, 0x00000000)  returns 0x00 (0000ms, 0694ms total)
T2598 009:118 JLINK_WriteReg(R11, 0x00000000)  returns 0x00 (0000ms, 0694ms total)
T2598 009:118 JLINK_WriteReg(R12, 0x00000000)  returns 0x00 (0000ms, 0694ms total)
T2598 009:118 JLINK_WriteReg(R13 (SP), 0x20001000)  returns 0x00 (0000ms, 0694ms total)
T2598 009:118 JLINK_WriteReg(R14, 0x20000001)  returns 0x00 (0000ms, 0694ms total)
T2598 009:118 JLINK_WriteReg(R15 (PC), 0x20000108)  returns 0x00 (0000ms, 0694ms total)
T2598 009:118 JLINK_WriteReg(XPSR, 0x01000000)  returns 0x00 (0000ms, 0694ms total)
T2598 009:118 JLINK_WriteReg(MSP, 0x20001000)  returns 0x00 (0000ms, 0694ms total)
T2598 009:118 JLINK_WriteReg(PSP, 0x20001000)  returns 0x00 (0000ms, 0694ms total)
T2598 009:118 JLINK_WriteReg(CFBP, 0x00000000)  returns 0x00 (0000ms, 0694ms total)
T2598 009:118 JLINK_SetBPEx(Addr = 0x20000000, Type = 0xFFFFFFF2)  returns 0x00000007 (0000ms, 0694ms total)
T2598 009:118 JLINK_Go() -- CPU_ReadMem(4 bytes @ 0xE0001000) (0003ms, 0697ms total)
T2598 009:121 JLINK_IsHalted()  returns FALSE (0001ms, 0698ms total)
T2598 009:127 JLINK_IsHalted() -- CPU_ReadMem(2 bytes @ 0x20000000)  returns TRUE (0004ms, 0701ms total)
T2598 009:131 JLINK_ReadReg(R15 (PC))  returns 0x20000000 (0000ms, 0701ms total)
T2598 009:131 JLINK_ClrBPEx(BPHandle = 0x00000007)  returns 0x00 (0000ms, 0701ms total)
T2598 009:131 JLINK_ReadReg(R0)  returns 0x00000000 (0000ms, 0701ms total)
T2598 009:131 JLINK_WriteMem(0x20000180, 0x0280 Bytes, ...) - Data: 17 48 01 F0 8B FD 72 B6 43 20 00 F0 8B FD 2A 20 ... -- CPU_WriteMem(640 bytes @ 0x20000180)  returns 0x280 (0003ms, 0704ms total)
T2598 009:134 JLINK_WriteMem(0x20000400, 0x0180 Bytes, ...) - Data: FF F7 42 FD 0E BD 10 B5 FF F7 84 FD F3 20 FF F7 ... -- CPU_WriteMem(384 bytes @ 0x20000400)  returns 0x180 (0002ms, 0706ms total)
T2598 009:136 JLINK_WriteReg(R0, 0x080C0800)  returns 0x00 (0000ms, 0706ms total)
T2598 009:136 JLINK_WriteReg(R1, 0x00000400)  returns 0x00 (0000ms, 0706ms total)
T2598 009:136 JLINK_WriteReg(R2, 0x20000180)  returns 0x00 (0000ms, 0706ms total)
T2598 009:136 JLINK_WriteReg(R3, 0x00000000)  returns 0x00 (0000ms, 0706ms total)
T2598 009:136 JLINK_WriteReg(R4, 0x00000000)  returns 0x00 (0000ms, 0706ms total)
T2598 009:136 JLINK_WriteReg(R5, 0x00000000)  returns 0x00 (0000ms, 0706ms total)
T2598 009:136 JLINK_WriteReg(R6, 0x00000000)  returns 0x00 (0000ms, 0706ms total)
T2598 009:136 JLINK_WriteReg(R7, 0x00000000)  returns 0x00 (0000ms, 0706ms total)
T2598 009:136 JLINK_WriteReg(R8, 0x00000000)  returns 0x00 (0000ms, 0706ms total)
T2598 009:136 JLINK_WriteReg(R9, 0x2000017C)  returns 0x00 (0000ms, 0706ms total)
T2598 009:136 JLINK_WriteReg(R10, 0x00000000)  returns 0x00 (0000ms, 0706ms total)
T2598 009:136 JLINK_WriteReg(R11, 0x00000000)  returns 0x00 (0001ms, 0707ms total)
T2598 009:137 JLINK_WriteReg(R12, 0x00000000)  returns 0x00 (0000ms, 0707ms total)
T2598 009:137 JLINK_WriteReg(R13 (SP), 0x20001000)  returns 0x00 (0000ms, 0707ms total)
T2598 009:137 JLINK_WriteReg(R14, 0x20000001)  returns 0x00 (0000ms, 0707ms total)
T2598 009:137 JLINK_WriteReg(R15 (PC), 0x20000108)  returns 0x00 (0000ms, 0707ms total)
T2598 009:137 JLINK_WriteReg(XPSR, 0x01000000)  returns 0x00 (0000ms, 0707ms total)
T2598 009:137 JLINK_WriteReg(MSP, 0x20001000)  returns 0x00 (0000ms, 0707ms total)
T2598 009:137 JLINK_WriteReg(PSP, 0x20001000)  returns 0x00 (0000ms, 0707ms total)
T2598 009:137 JLINK_WriteReg(CFBP, 0x00000000)  returns 0x00 (0000ms, 0707ms total)
T2598 009:137 JLINK_SetBPEx(Addr = 0x20000000, Type = 0xFFFFFFF2)  returns 0x00000008 (0000ms, 0707ms total)
T2598 009:137 JLINK_Go() -- CPU_ReadMem(4 bytes @ 0xE0001000) (0002ms, 0709ms total)
T2598 009:139 JLINK_IsHalted()  returns FALSE (0001ms, 0710ms total)
T2598 009:144 JLINK_IsHalted() -- CPU_ReadMem(2 bytes @ 0x20000000)  returns TRUE (0004ms, 0713ms total)
T2598 009:148 JLINK_ReadReg(R15 (PC))  returns 0x20000000 (0000ms, 0709ms total)
T2598 009:148 JLINK_ClrBPEx(BPHandle = 0x00000008)  returns 0x00 (0000ms, 0709ms total)
T2598 009:148 JLINK_ReadReg(R0)  returns 0x00000000 (0000ms, 0709ms total)
T2598 009:149 JLINK_WriteMem(0x20000180, 0x0280 Bytes, ...) - Data: 4F F4 00 6B CD F8 00 B0 69 46 94 48 FF F7 88 FE ... -- CPU_WriteMem(640 bytes @ 0x20000180)  returns 0x280 (0002ms, 0711ms total)
T2598 009:151 JLINK_WriteMem(0x20000400, 0x0180 Bytes, ...) - Data: 00 F0 1C FB 01 21 C8 05 00 F0 D2 FA FF F7 74 FE ... -- CPU_WriteMem(384 bytes @ 0x20000400)  returns 0x180 (0002ms, 0713ms total)
T2598 009:153 JLINK_WriteReg(R0, 0x080C0C00)  returns 0x00 (0000ms, 0713ms total)
T2598 009:153 JLINK_WriteReg(R1, 0x00000400)  returns 0x00 (0000ms, 0713ms total)
T2598 009:153 JLINK_WriteReg(R2, 0x20000180)  returns 0x00 (0000ms, 0713ms total)
T2598 009:153 JLINK_WriteReg(R3, 0x00000000)  returns 0x00 (0000ms, 0713ms total)
T2598 009:153 JLINK_WriteReg(R4, 0x00000000)  returns 0x00 (0000ms, 0713ms total)
T2598 009:153 JLINK_WriteReg(R5, 0x00000000)  returns 0x00 (0000ms, 0713ms total)
T2598 009:153 JLINK_WriteReg(R6, 0x00000000)  returns 0x00 (0000ms, 0713ms total)
T2598 009:154 JLINK_WriteReg(R7, 0x00000000)  returns 0x00 (0000ms, 0713ms total)
T2598 009:154 JLINK_WriteReg(R8, 0x00000000)  returns 0x00 (0000ms, 0713ms total)
T2598 009:154 JLINK_WriteReg(R9, 0x2000017C)  returns 0x00 (0000ms, 0713ms total)
T2598 009:154 JLINK_WriteReg(R10, 0x00000000)  returns 0x00 (0000ms, 0713ms total)
T2598 009:154 JLINK_WriteReg(R11, 0x00000000)  returns 0x00 (0000ms, 0713ms total)
T2598 009:154 JLINK_WriteReg(R12, 0x00000000)  returns 0x00 (0000ms, 0713ms total)
T2598 009:154 JLINK_WriteReg(R13 (SP), 0x20001000)  returns 0x00 (0000ms, 0713ms total)
T2598 009:154 JLINK_WriteReg(R14, 0x20000001)  returns 0x00 (0000ms, 0713ms total)
T2598 009:154 JLINK_WriteReg(R15 (PC), 0x20000108)  returns 0x00 (0000ms, 0713ms total)
T2598 009:154 JLINK_WriteReg(XPSR, 0x01000000)  returns 0x00 (0000ms, 0713ms total)
T2598 009:154 JLINK_WriteReg(MSP, 0x20001000)  returns 0x00 (0000ms, 0713ms total)
T2598 009:154 JLINK_WriteReg(PSP, 0x20001000)  returns 0x00 (0000ms, 0713ms total)
T2598 009:154 JLINK_WriteReg(CFBP, 0x00000000)  returns 0x00 (0000ms, 0713ms total)
T2598 009:154 JLINK_SetBPEx(Addr = 0x20000000, Type = 0xFFFFFFF2)  returns 0x00000009 (0000ms, 0713ms total)
T2598 009:154 JLINK_Go() -- CPU_ReadMem(4 bytes @ 0xE0001000) (0005ms, 0718ms total)
T2598 009:159 JLINK_IsHalted()  returns FALSE (0001ms, 0719ms total)
T2598 009:165 JLINK_IsHalted() -- CPU_ReadMem(2 bytes @ 0x20000000)  returns TRUE (0004ms, 0722ms total)
T2598 009:169 JLINK_ReadReg(R15 (PC))  returns 0x20000000 (0000ms, 0718ms total)
T2598 009:169 JLINK_ClrBPEx(BPHandle = 0x00000009)  returns 0x00 (0000ms, 0718ms total)
T2598 009:169 JLINK_ReadReg(R0)  returns 0x00000000 (0000ms, 0718ms total)
T2598 009:170 JLINK_WriteMem(0x20000180, 0x0280 Bytes, ...) - Data: 5F EA 0B 60 35 D5 41 46 20 46 DA F8 00 20 FF F7 ... -- CPU_WriteMem(640 bytes @ 0x20000180)  returns 0x280 (0002ms, 0720ms total)
T2598 009:172 JLINK_WriteMem(0x20000400, 0x0180 Bytes, ...) - Data: 02 6B 6F F3 0A 02 02 63 C9 6B 01 63 70 BD 00 00 ... -- CPU_WriteMem(384 bytes @ 0x20000400)  returns 0x180 (0002ms, 0722ms total)
T2598 009:174 JLINK_WriteReg(R0, 0x080C1000)  returns 0x00 (0000ms, 0722ms total)
T2598 009:174 JLINK_WriteReg(R1, 0x00000400)  returns 0x00 (0000ms, 0722ms total)
T2598 009:174 JLINK_WriteReg(R2, 0x20000180)  returns 0x00 (0000ms, 0722ms total)
T2598 009:174 JLINK_WriteReg(R3, 0x00000000)  returns 0x00 (0000ms, 0722ms total)
T2598 009:174 JLINK_WriteReg(R4, 0x00000000)  returns 0x00 (0000ms, 0722ms total)
T2598 009:174 JLINK_WriteReg(R5, 0x00000000)  returns 0x00 (0000ms, 0722ms total)
T2598 009:174 JLINK_WriteReg(R6, 0x00000000)  returns 0x00 (0000ms, 0722ms total)
T2598 009:174 JLINK_WriteReg(R7, 0x00000000)  returns 0x00 (0001ms, 0723ms total)
T2598 009:175 JLINK_WriteReg(R8, 0x00000000)  returns 0x00 (0000ms, 0723ms total)
T2598 009:175 JLINK_WriteReg(R9, 0x2000017C)  returns 0x00 (0000ms, 0723ms total)
T2598 009:175 JLINK_WriteReg(R10, 0x00000000)  returns 0x00 (0000ms, 0723ms total)
T2598 009:175 JLINK_WriteReg(R11, 0x00000000)  returns 0x00 (0000ms, 0723ms total)
T2598 009:175 JLINK_WriteReg(R12, 0x00000000)  returns 0x00 (0000ms, 0723ms total)
T2598 009:175 JLINK_WriteReg(R13 (SP), 0x20001000)  returns 0x00 (0000ms, 0723ms total)
T2598 009:175 JLINK_WriteReg(R14, 0x20000001)  returns 0x00 (0000ms, 0723ms total)
T2598 009:175 JLINK_WriteReg(R15 (PC), 0x20000108)  returns 0x00 (0000ms, 0723ms total)
T2598 009:175 JLINK_WriteReg(XPSR, 0x01000000)  returns 0x00 (0000ms, 0723ms total)
T2598 009:175 JLINK_WriteReg(MSP, 0x20001000)  returns 0x00 (0000ms, 0723ms total)
T2598 009:175 JLINK_WriteReg(PSP, 0x20001000)  returns 0x00 (0000ms, 0723ms total)
T2598 009:175 JLINK_WriteReg(CFBP, 0x00000000)  returns 0x00 (0000ms, 0723ms total)
T2598 009:175 JLINK_SetBPEx(Addr = 0x20000000, Type = 0xFFFFFFF2)  returns 0x0000000A (0000ms, 0723ms total)
T2598 009:175 JLINK_Go() -- CPU_ReadMem(4 bytes @ 0xE0001000) (0002ms, 0725ms total)
T2598 009:177 JLINK_IsHalted()  returns FALSE (0001ms, 0726ms total)
T2598 009:179 JLINK_IsHalted()  returns FALSE (0001ms, 0726ms total)
T2598 009:181 JLINK_IsHalted() -- CPU_ReadMem(2 bytes @ 0x20000000)  returns TRUE (0004ms, 0729ms total)
T2598 009:185 JLINK_ReadReg(R15 (PC))  returns 0x20000000 (0000ms, 0725ms total)
T2598 009:185 JLINK_ClrBPEx(BPHandle = 0x0000000A)  returns 0x00 (0000ms, 0725ms total)
T2598 009:185 JLINK_ReadReg(R0)  returns 0x00000000 (0000ms, 0725ms total)
T2598 009:186 JLINK_WriteMem(0x20000180, 0x0280 Bytes, ...) - Data: 00 F0 C0 07 06 D0 38 19 B1 B2 80 B2 5A 46 FF F7 ... -- CPU_WriteMem(640 bytes @ 0x20000180)  returns 0x280 (0003ms, 0728ms total)
T2598 009:189 JLINK_WriteMem(0x20000400, 0x0180 Bytes, ...) - Data: F9 E7 00 00 24 28 00 40 FF 00 7F 00 08 B5 00 20 ... -- CPU_WriteMem(384 bytes @ 0x20000400)  returns 0x180 (0002ms, 0730ms total)
T2598 009:191 JLINK_WriteReg(R0, 0x080C1400)  returns 0x00 (0000ms, 0730ms total)
T2598 009:191 JLINK_WriteReg(R1, 0x00000400)  returns 0x00 (0000ms, 0730ms total)
T2598 009:191 JLINK_WriteReg(R2, 0x20000180)  returns 0x00 (0000ms, 0730ms total)
T2598 009:191 JLINK_WriteReg(R3, 0x00000000)  returns 0x00 (0000ms, 0730ms total)
T2598 009:191 JLINK_WriteReg(R4, 0x00000000)  returns 0x00 (0000ms, 0730ms total)
T2598 009:191 JLINK_WriteReg(R5, 0x00000000)  returns 0x00 (0000ms, 0730ms total)
T2598 009:191 JLINK_WriteReg(R6, 0x00000000)  returns 0x00 (0000ms, 0730ms total)
T2598 009:191 JLINK_WriteReg(R7, 0x00000000)  returns 0x00 (0000ms, 0730ms total)
T2598 009:191 JLINK_WriteReg(R8, 0x00000000)  returns 0x00 (0000ms, 0730ms total)
T2598 009:191 JLINK_WriteReg(R9, 0x2000017C)  returns 0x00 (0000ms, 0730ms total)
T2598 009:191 JLINK_WriteReg(R10, 0x00000000)  returns 0x00 (0000ms, 0730ms total)
T2598 009:191 JLINK_WriteReg(R11, 0x00000000)  returns 0x00 (0000ms, 0730ms total)
T2598 009:191 JLINK_WriteReg(R12, 0x00000000)  returns 0x00 (0000ms, 0730ms total)
T2598 009:191 JLINK_WriteReg(R13 (SP), 0x20001000)  returns 0x00 (0000ms, 0730ms total)
T2598 009:191 JLINK_WriteReg(R14, 0x20000001)  returns 0x00 (0000ms, 0730ms total)
T2598 009:191 JLINK_WriteReg(R15 (PC), 0x20000108)  returns 0x00 (0000ms, 0730ms total)
T2598 009:191 JLINK_WriteReg(XPSR, 0x01000000)  returns 0x00 (0000ms, 0730ms total)
T2598 009:191 JLINK_WriteReg(MSP, 0x20001000)  returns 0x00 (0000ms, 0730ms total)
T2598 009:191 JLINK_WriteReg(PSP, 0x20001000)  returns 0x00 (0000ms, 0730ms total)
T2598 009:191 JLINK_WriteReg(CFBP, 0x00000000)  returns 0x00 (0000ms, 0730ms total)
T2598 009:191 JLINK_SetBPEx(Addr = 0x20000000, Type = 0xFFFFFFF2)  returns 0x0000000B (0000ms, 0730ms total)
T2598 009:191 JLINK_Go() -- CPU_ReadMem(4 bytes @ 0xE0001000) (0003ms, 0733ms total)
T2598 009:194 JLINK_IsHalted()  returns FALSE (0001ms, 0734ms total)
T2598 009:197 JLINK_IsHalted()  returns FALSE (0001ms, 0734ms total)
T2598 009:199 JLINK_IsHalted() -- CPU_ReadMem(2 bytes @ 0x20000000)  returns TRUE (0003ms, 0736ms total)
T2598 009:202 JLINK_ReadReg(R15 (PC))  returns 0x20000000 (0000ms, 0733ms total)
T2598 009:202 JLINK_ClrBPEx(BPHandle = 0x0000000B)  returns 0x00 (0000ms, 0733ms total)
T2598 009:202 JLINK_ReadReg(R0)  returns 0x00000000 (0000ms, 0733ms total)
T2598 009:203 JLINK_WriteMem(0x20000180, 0x0280 Bytes, ...) - Data: 53 21 19 60 12 49 1C 39 00 28 05 D0 08 68 40 F4 ... -- CPU_WriteMem(640 bytes @ 0x20000180)  returns 0x280 (0002ms, 0735ms total)
T2598 009:205 JLINK_WriteMem(0x20000400, 0x0180 Bytes, ...) - Data: FE F7 4E FF 0C 22 0E 21 50 48 FE F7 87 FF 00 94 ... -- CPU_WriteMem(384 bytes @ 0x20000400)  returns 0x180 (0004ms, 0739ms total)
T2598 009:209 JLINK_WriteReg(R0, 0x080C1800)  returns 0x00 (0000ms, 0739ms total)
T2598 009:209 JLINK_WriteReg(R1, 0x00000400)  returns 0x00 (0000ms, 0739ms total)
T2598 009:209 JLINK_WriteReg(R2, 0x20000180)  returns 0x00 (0000ms, 0739ms total)
T2598 009:209 JLINK_WriteReg(R3, 0x00000000)  returns 0x00 (0000ms, 0739ms total)
T2598 009:209 JLINK_WriteReg(R4, 0x00000000)  returns 0x00 (0000ms, 0739ms total)
T2598 009:209 JLINK_WriteReg(R5, 0x00000000)  returns 0x00 (0000ms, 0739ms total)
T2598 009:209 JLINK_WriteReg(R6, 0x00000000)  returns 0x00 (0000ms, 0739ms total)
T2598 009:209 JLINK_WriteReg(R7, 0x00000000)  returns 0x00 (0000ms, 0739ms total)
T2598 009:209 JLINK_WriteReg(R8, 0x00000000)  returns 0x00 (0000ms, 0739ms total)
T2598 009:209 JLINK_WriteReg(R9, 0x2000017C)  returns 0x00 (0000ms, 0739ms total)
T2598 009:209 JLINK_WriteReg(R10, 0x00000000)  returns 0x00 (0000ms, 0739ms total)
T2598 009:209 JLINK_WriteReg(R11, 0x00000000)  returns 0x00 (0000ms, 0739ms total)
T2598 009:209 JLINK_WriteReg(R12, 0x00000000)  returns 0x00 (0000ms, 0739ms total)
T2598 009:209 JLINK_WriteReg(R13 (SP), 0x20001000)  returns 0x00 (0000ms, 0739ms total)
T2598 009:209 JLINK_WriteReg(R14, 0x20000001)  returns 0x00 (0000ms, 0739ms total)
T2598 009:209 JLINK_WriteReg(R15 (PC), 0x20000108)  returns 0x00 (0000ms, 0739ms total)
T2598 009:209 JLINK_WriteReg(XPSR, 0x01000000)  returns 0x00 (0000ms, 0739ms total)
T2598 009:209 JLINK_WriteReg(MSP, 0x20001000)  returns 0x00 (0000ms, 0739ms total)
T2598 009:209 JLINK_WriteReg(PSP, 0x20001000)  returns 0x00 (0000ms, 0739ms total)
T2598 009:209 JLINK_WriteReg(CFBP, 0x00000000)  returns 0x00 (0000ms, 0739ms total)
T2598 009:209 JLINK_SetBPEx(Addr = 0x20000000, Type = 0xFFFFFFF2)  returns 0x0000000C (0000ms, 0739ms total)
T2598 009:209 JLINK_Go() -- CPU_ReadMem(4 bytes @ 0xE0001000) (0004ms, 0743ms total)
T2598 009:213 JLINK_IsHalted()  returns FALSE (0001ms, 0744ms total)
T2598 009:217 JLINK_IsHalted() -- CPU_ReadMem(2 bytes @ 0x20000000)  returns TRUE (0004ms, 0747ms total)
T2598 009:221 JLINK_ReadReg(R15 (PC))  returns 0x20000000 (0000ms, 0743ms total)
T2598 009:221 JLINK_ClrBPEx(BPHandle = 0x0000000C)  returns 0x00 (0000ms, 0743ms total)
T2598 009:221 JLINK_ReadReg(R0)  returns 0x00000000 (0000ms, 0743ms total)
T2598 009:222 JLINK_WriteMem(0x20000180, 0x0280 Bytes, ...) - Data: 00 20 09 90 0A 91 10 21 0B 91 40 21 0C 91 4F F4 ... -- CPU_WriteMem(640 bytes @ 0x20000180)  returns 0x280 (0002ms, 0745ms total)
T2598 009:224 JLINK_WriteMem(0x20000400, 0x0180 Bytes, ...) - Data: 02 20 8D F8 01 00 03 20 8D F8 02 00 01 20 8D F8 ... -- CPU_WriteMem(384 bytes @ 0x20000400)  returns 0x180 (0002ms, 0747ms total)
T2598 009:226 JLINK_WriteReg(R0, 0x080C1C00)  returns 0x00 (0000ms, 0747ms total)
T2598 009:226 JLINK_WriteReg(R1, 0x00000400)  returns 0x00 (0000ms, 0747ms total)
T2598 009:227 JLINK_WriteReg(R2, 0x20000180)  returns 0x00 (0000ms, 0747ms total)
T2598 009:227 JLINK_WriteReg(R3, 0x00000000)  returns 0x00 (0000ms, 0747ms total)
T2598 009:227 JLINK_WriteReg(R4, 0x00000000)  returns 0x00 (0000ms, 0747ms total)
T2598 009:227 JLINK_WriteReg(R5, 0x00000000)  returns 0x00 (0000ms, 0747ms total)
